frecuencia;Vin;Vout;Ganancia
100;100;980;9,8
200;100;940;9,4
300;100;920;9,2
400;100;900;9
500;100;860;8,6
600;100;820;8,2
700;100;800;8
800;100;740;7,4
900;100;720;7,2
1000;100;700;7
1100;100;660;6,6
1200;100;640;6,4
1300;100;620;6,2
1400;100;600;6
1500;100;580;5,8
1600;100;540;5,4
1700;100;520;5,2
1800;100;500;5
1900;100;480;4,8
2000;100;460;4,6
3000;100;360;3,6
4000;100;300;3
5000;100;260;2,6
